Freq.	V(n001)/I(C1)
1.00000000000000e+002	(6.40364026296161e+001dB,-8.99996039999998e+001°)
1.02329299228075e+002	(6.38364026294643e+001dB,-8.99995947759749e+001°)
1.04712854805090e+002	(6.36364026293053e+001dB,-8.99995853370948e+001°)
1.07151930523761e+002	(6.34364026291388e+001dB,-8.99995756783549e+001°)
1.09647819614318e+002	(6.32364026289645e+001dB,-8.99995657946341e+001°)
1.12201845430196e+002	(6.30364026287820e+001dB,-8.99995556806919e+001°)
1.14815362149688e+002	(6.28364026285908e+001dB,-8.99995453311657e+001°)
1.17489755493953e+002	(6.26364026283907e+001dB,-8.99995347405680e+001°)
1.20226443461741e+002	(6.24364026281811e+001dB,-8.99995239032836e+001°)
1.23026877081238e+002	(6.22364026279616e+001dB,-8.99995128135665e+001°)
1.25892541179417e+002	(6.20364026277318e+001dB,-8.99995014655366e+001°)
1.28824955169313e+002	(6.18364026274912e+001dB,-8.99994898531772e+001°)
1.31825673855641e+002	(6.16364026272392e+001dB,-8.99994779703312e+001°)
1.34896288259165e+002	(6.14364026269754e+001dB,-8.99994658106981e+001°)
1.38038426460288e+002	(6.12364026266991e+001dB,-8.99994533678308e+001°)
1.41253754462275e+002	(6.10364026264098e+001dB,-8.99994406351319e+001°)
1.44543977074593e+002	(6.08364026261068e+001dB,-8.99994276058503e+001°)
1.47910838816821e+002	(6.06364026257896e+001dB,-8.99994142730778e+001°)
1.51356124843621e+002	(6.04364026254575e+001dB,-8.99994006297451e+001°)
1.54881661891248e+002	(6.02364026251096e+001dB,-8.99993866686184e+001°)
1.58489319246111e+002	(6.00364026247454e+001dB,-8.99993723822952e+001°)
1.62181009735893e+002	(5.98364026243641e+001dB,-8.99993577632008e+001°)
1.65958690743756e+002	(5.96364026239647e+001dB,-8.99993428035840e+001°)
1.69824365246174e+002	(5.94364026235465e+001dB,-8.99993274955129e+001°)
1.73780082874937e+002	(5.92364026231087e+001dB,-8.99993118308710e+001°)
1.77827941003892e+002	(5.90364026226501e+001dB,-8.99992958013528e+001°)
1.81970085860998e+002	(5.88364026221700e+001dB,-8.99992793984591e+001°)
1.86208713666287e+002	(5.86364026216673e+001dB,-8.99992626134929e+001°)
1.90546071796324e+002	(5.84364026211408e+001dB,-8.99992454375546e+001°)
1.94984459975804e+002	(5.82364026205896e+001dB,-8.99992278615374e+001°)
1.99526231496888e+002	(5.80364026200123e+001dB,-8.99992098761221e+001°)
2.04173794466953e+002	(5.78364026194079e+001dB,-8.99991914717726e+001°)
2.08929613085404e+002	(5.76364026187749e+001dB,-8.99991726387308e+001°)
2.13796208950223e+002	(5.74364026181122e+001dB,-8.99991533670111e+001°)
2.18776162394955e+002	(5.72364026174182e+001dB,-8.99991336463954e+001°)
2.23872113856834e+002	(5.70364026166915e+001dB,-8.99991134664274e+001°)
2.29086765276777e+002	(5.68364026159305e+001dB,-8.99990928164077e+001°)
2.34422881531992e+002	(5.66364026151337e+001dB,-8.99990716853872e+001°)
2.39883291901949e+002	(5.64364026142994e+001dB,-8.99990500621620e+001°)
2.45470891568503e+002	(5.62364026134257e+001dB,-8.99990279352672e+001°)
2.51188643150958e+002	(5.60364026125108e+001dB,-8.99990052929708e+001°)
2.57039578276886e+002	(5.58364026115528e+001dB,-8.99989821232675e+001°)
2.63026799189538e+002	(5.56364026105497e+001dB,-8.99989584138725e+001°)
2.69153480392691e+002	(5.54364026094993e+001dB,-8.99989341522147e+001°)
2.75422870333816e+002	(5.52364026083994e+001dB,-8.99989093254303e+001°)
2.81838293126445e+002	(5.50364026072477e+001dB,-8.99988839203559e+001°)
2.88403150312660e+002	(5.48364026060417e+001dB,-8.99988579235212e+001°)
2.95120922666638e+002	(5.46364026047788e+001dB,-8.99988313211424e+001°)
3.01995172040201e+002	(5.44364026034564e+001dB,-8.99988040991146e+001°)
3.09029543251358e+002	(5.42364026020717e+001dB,-8.99987762430043e+001°)
3.16227766016837e+002	(5.40364026006218e+001dB,-8.99987477380418e+001°)
3.23593656929628e+002	(5.38364025991035e+001dB,-8.99987185691135e+001°)
3.31131121482590e+002	(5.36364025975136e+001dB,-8.99986887207535e+001°)
3.38844156139202e+002	(5.34364025958489e+001dB,-8.99986581771359e+001°)
3.46736850452531e+002	(5.32364025941056e+001dB,-8.99986269220660e+001°)
3.54813389233575e+002	(5.30364025922802e+001dB,-8.99985949389719e+001°)
3.63078054770101e+002	(5.28364025903688e+001dB,-8.99985622108959e+001°)
3.71535229097172e+002	(5.26364025883673e+001dB,-8.99985287204851e+001°)
3.80189396320560e+002	(5.24364025862715e+001dB,-8.99984944499823e+001°)
3.89045144994280e+002	(5.22364025840769e+001dB,-8.99984593812170e+001°)
3.98107170553496e+002	(5.20364025817789e+001dB,-8.99984234955951e+001°)
4.07380277804112e+002	(5.18364025793726e+001dB,-8.99983867740898e+001°)
4.16869383470335e+002	(5.16364025768528e+001dB,-8.99983491972306e+001°)
4.26579518801592e+002	(5.14364025742143e+001dB,-8.99983107450939e+001°)
4.36515832240165e+002	(5.12364025714515e+001dB,-8.99982713972919e+001°)
4.46683592150962e+002	(5.10364025685585e+001dB,-8.99982311329617e+001°)
4.57088189614874e+002	(5.08364025655291e+001dB,-8.99981899307548e+001°)
4.67735141287197e+002	(5.06364025623569e+001dB,-8.99981477688251e+001°)
4.78630092322637e+002	(5.04364025590353e+001dB,-8.99981046248180e+001°)
4.89778819368445e+002	(5.02364025555571e+001dB,-8.99980604758577e+001°)
5.01187233627271e+002	(5.00364025519149e+001dB,-8.99980152985359e+001°)
5.12861383991364e+002	(4.98364025481012e+001dB,-8.99979690688992e+001°)
5.24807460249771e+002	(4.96364025441077e+001dB,-8.99979217624357e+001°)
5.37031796370251e+002	(4.94364025399259e+001dB,-8.99978733540631e+001°)
5.49540873857623e+002	(4.92364025355471e+001dB,-8.99978238181146e+001°)
5.62341325190348e+002	(4.90364025309620e+001dB,-8.99977731283256e+001°)
5.75439937337155e+002	(4.88364025261607e+001dB,-8.99977212578196e+001°)
5.88843655355587e+002	(4.86364025211332e+001dB,-8.99976681790942e+001°)
6.02559586074356e+002	(4.84364025158687e+001dB,-8.99976138640063e+001°)
6.16595001861481e+002	(4.82364025103561e+001dB,-8.99975582837575e+001°)
6.30957344480192e+002	(4.80364025045837e+001dB,-8.99975014088782e+001°)
6.45654229034654e+002	(4.78364024985393e+001dB,-8.99974432092126e+001°)
6.60693448007594e+002	(4.76364024922100e+001dB,-8.99973836539026e+001°)
6.76082975391980e+002	(4.74364024855825e+001dB,-8.99973227113711e+001°)
6.91830970918935e+002	(4.72364024786425e+001dB,-8.99972603493055e+001°)
7.07945784384136e+002	(4.70364024713755e+001dB,-8.99971965346406e+001°)
7.24435960074988e+002	(4.68364024637661e+001dB,-8.99971312335411e+001°)
7.41310241300916e+002	(4.66364024557980e+001dB,-8.99970644113833e+001°)
7.58577575029182e+002	(4.64364024474543e+001dB,-8.99969960327374e+001°)
7.76247116628690e+002	(4.62364024387175e+001dB,-8.99969260613480e+001°)
7.94328234724279e+002	(4.60364024295689e+001dB,-8.99968544601153e+001°)
8.12830516164097e+002	(4.58364024199891e+001dB,-8.99967811910754e+001°)
8.31763771102669e+002	(4.56364024099579e+001dB,-8.99967062153801e+001°)
8.51138038202374e+002	(4.54364023994539e+001dB,-8.99966294932762e+001°)
8.70963589956078e+002	(4.52364023884548e+001dB,-8.99965509840846e+001°)
8.91250938133743e+002	(4.50364023769374e+001dB,-8.99964706461788e+001°)
9.12010839355907e+002	(4.48364023648772e+001dB,-8.99963884369623e+001°)
9.33254300796988e+002	(4.46364023522486e+001dB,-8.99963043128469e+001°)
9.54992586021433e+002	(4.44364023390248e+001dB,-8.99962182292287e+001°)
9.77237220955808e+002	(4.42364023251779e+001dB,-8.99961301404650e+001°)
9.99999999999997e+002	(4.40364023106783e+001dB,-8.99960399998500e+001°)
1.02329299228075e+003	(4.38364022954954e+001dB,-8.99959477595898e+001°)
1.04712854805090e+003	(4.36364022795970e+001dB,-8.99958533707775e+001°)
1.07151930523760e+003	(4.34364022629492e+001dB,-8.99957567833667e+001°)
1.09647819614318e+003	(4.32364022455169e+001dB,-8.99956579461455e+001°)
1.12201845430196e+003	(4.30364022272630e+001dB,-8.99955568067090e+001°)
1.14815362149688e+003	(4.28364022081489e+001dB,-8.99954533114318e+001°)
1.17489755493953e+003	(4.26364021881339e+001dB,-8.99953474054391e+001°)
1.20226443461741e+003	(4.24364021671757e+001dB,-8.99952390325782e+001°)
1.23026877081238e+003	(4.22364021452297e+001dB,-8.99951281353882e+001°)
1.25892541179416e+003	(4.20364021222495e+001dB,-8.99950146550700e+001°)
1.28824955169313e+003	(4.18364020981862e+001dB,-8.99948985314545e+001°)
1.31825673855640e+003	(4.16364020729888e+001dB,-8.99947797029716e+001°)
1.34896288259165e+003	(4.14364020466039e+001dB,-8.99946581066167e+001°)
1.38038426460288e+003	(4.12364020189756e+001dB,-8.99945336779176e+001°)
1.41253754462275e+003	(4.10364019900452e+001dB,-8.99944063509005e+001°)
1.44543977074592e+003	(4.08364019597513e+001dB,-8.99942760580548e+001°)
1.47910838816820e+003	(4.06364019280297e+001dB,-8.99941427302974e+001°)
1.51356124843620e+003	(4.04364018948131e+001dB,-8.99940062969360e+001°)
1.54881661891248e+003	(4.02364018600311e+001dB,-8.99938666856317e+001°)
1.58489319246111e+003	(4.00364018236098e+001dB,-8.99937238223606e+001°)
1.62181009735892e+003	(3.98364017854721e+001dB,-8.99935776313745e+001°)
1.65958690743755e+003	(3.96364017455370e+001dB,-8.99934280351608e+001°)
1.69824365246174e+003	(3.94364017037198e+001dB,-8.99932749544014e+001°)
1.73780082874937e+003	(3.92364016599318e+001dB,-8.99931183079308e+001°)
1.77827941003892e+003	(3.90364016140802e+001dB,-8.99929580126926e+001°)
1.81970085860998e+003	(3.88364015660676e+001dB,-8.99927939836959e+001°)
1.86208713666286e+003	(3.86364015157923e+001dB,-8.99926261339701e+001°)
1.90546071796324e+003	(3.84364014631475e+001dB,-8.99924543745189e+001°)
1.94984459975804e+003	(3.82364014080217e+001dB,-8.99922786142728e+001°)
1.99526231496887e+003	(3.80364013502979e+001dB,-8.99920987600410e+001°)
2.04173794466952e+003	(3.78364012898537e+001dB,-8.99919147164622e+001°)
2.08929613085403e+003	(3.76364012265608e+001dB,-8.99917263859535e+001°)
2.13796208950222e+003	(3.74364011602850e+001dB,-8.99915336686594e+001°)
2.18776162394954e+003	(3.72364010908857e+001dB,-8.99913364623982e+001°)
2.23872113856833e+003	(3.70364010182157e+001dB,-8.99911346626079e+001°)
2.29086765276776e+003	(3.68364009421210e+001dB,-8.99909281622913e+001°)
2.34422881531991e+003	(3.66364008624399e+001dB,-8.99907168519586e+001°)
2.39883291901948e+003	(3.64364007790036e+001dB,-8.99905006195697e+001°)
2.45470891568502e+003	(3.62364006916351e+001dB,-8.99902793504748e+001°)
2.51188643150957e+003	(3.60364006001490e+001dB,-8.99900529273534e+001°)
2.57039578276885e+003	(3.58364005043514e+001dB,-8.99898212301524e+001°)
2.63026799189537e+003	(3.56364004040389e+001dB,-8.99895841360220e+001°)
2.69153480392690e+003	(3.54364002989988e+001dB,-8.99893415192511e+001°)
2.75422870333815e+003	(3.52364001890084e+001dB,-8.99890932512002e+001°)
2.81838293126444e+003	(3.50364000738342e+001dB,-8.99888392002335e+001°)
2.88403150312659e+003	(3.48363999532321e+001dB,-8.99885792316487e+001°)
2.95120922666637e+003	(3.46363998269461e+001dB,-8.99883132076061e+001°)
3.01995172040200e+003	(3.44363996947085e+001dB,-8.99880409870551e+001°)
3.09029543251358e+003	(3.42363995562387e+001dB,-8.99877624256596e+001°)
3.16227766016836e+003	(3.40363994112431e+001dB,-8.99874773757214e+001°)
3.23593656929627e+003	(3.38363992594140e+001dB,-8.99871856861019e+001°)
3.31131121482590e+003	(3.36363991004294e+001dB,-8.99868872021421e+001°)
3.38844156139201e+003	(3.34363989339521e+001dB,-8.99865817655801e+001°)
3.46736850452530e+003	(3.32363987596289e+001dB,-8.99862692144678e+001°)
3.54813389233574e+003	(3.30363985770902e+001dB,-8.99859493830848e+001°)
3.63078054770100e+003	(3.28363983859486e+001dB,-8.99856221018503e+001°)
3.71535229097171e+003	(3.26363981857989e+001dB,-8.99852871972333e+001°)
3.80189396320559e+003	(3.24363979762163e+001dB,-8.99849444916610e+001°)
3.89045144994279e+003	(3.22363977567565e+001dB,-8.99845938034239e+001°)
3.98107170553495e+003	(3.20363975269538e+001dB,-8.99842349465799e+001°)
4.07380277804111e+003	(3.18363972863208e+001dB,-8.99838677308557e+001°)
4.16869383470333e+003	(3.16363970343472e+001dB,-8.99834919615459e+001°)
4.26579518801591e+003	(3.14363967704984e+001dB,-8.99831074394095e+001°)
4.36515832240164e+003	(3.12363964942148e+001dB,-8.99827139605644e+001°)
4.46683592150961e+003	(3.10363962049103e+001dB,-8.99823113163795e+001°)
4.57088189614873e+003	(3.08363959019713e+001dB,-8.99818992933636e+001°)
4.67735141287196e+003	(3.06363955847552e+001dB,-8.99814776730527e+001°)
4.78630092322636e+003	(3.04363952525892e+001dB,-8.99810462318937e+001°)
4.89778819368444e+003	(3.02363949047687e+001dB,-8.99806047411261e+001°)
5.01187233627270e+003	(3.00363945405558e+001dB,-8.99801529666608e+001°)
5.12861383991362e+003	(2.98363941591782e+001dB,-8.99796906689556e+001°)
5.24807460249770e+003	(2.96363937598267e+001dB,-8.99792176028883e+001°)
5.37031796370250e+003	(2.94363933416544e+001dB,-8.99787335176270e+001°)
5.49540873857622e+003	(2.92363929037742e+001dB,-8.99782381564966e+001°)
5.62341325190346e+003	(2.90363924452574e+001dB,-8.99777312568431e+001°)
5.75439937337154e+003	(2.88363919651312e+001dB,-8.99772125498940e+001°)
5.88843655355586e+003	(2.86363914623774e+001dB,-8.99766817606159e+001°)
6.02559586074354e+003	(2.84363909359295e+001dB,-8.99761386075686e+001°)
6.16595001861479e+003	(2.82363903846709e+001dB,-8.99755828027560e+001°)
6.30957344480190e+003	(2.80363898074322e+001dB,-8.99750140514729e+001°)
6.45654229034652e+003	(2.78363892029891e+001dB,-8.99744320521493e+001°)
6.60693448007592e+003	(2.76363885700594e+001dB,-8.99738364961900e+001°)
6.76082975391978e+003	(2.74363879073005e+001dB,-8.99732270678110e+001°)
6.91830970918932e+003	(2.72363872133068e+001dB,-8.99726034438722e+001°)
7.07945784384134e+003	(2.70363864866061e+001dB,-8.99719652937060e+001°)
7.24435960074986e+003	(2.68363857256570e+001dB,-8.99713122789415e+001°)
7.41310241300913e+003	(2.66363849288455e+001dB,-8.99706440533255e+001°)
7.58577575029179e+003	(2.64363840944812e+001dB,-8.99699602625387e+001°)
7.76247116628687e+003	(2.62363832207946e+001dB,-8.99692605440075e+001°)
7.94328234724277e+003	(2.60363823059322e+001dB,-8.99685445267121e+001°)
8.12830516164094e+003	(2.58363813479537e+001dB,-8.99678118309893e+001°)
8.31763771102666e+003	(2.56363803448269e+001dB,-8.99670620683314e+001°)
8.51138038202371e+003	(2.54363792944240e+001dB,-8.99662948411798e+001°)
8.70963589956075e+003	(2.52363781945172e+001dB,-8.99655097427143e+001°)
8.91250938133740e+003	(2.50363770427731e+001dB,-8.99647063566372e+001°)
9.12010839355904e+003	(2.48363758367489e+001dB,-8.99638842569525e+001°)
9.33254300796985e+003	(2.46363745738864e+001dB,-8.99630430077399e+001°)
9.54992586021430e+003	(2.44363732515068e+001dB,-8.99621821629233e+001°)
9.77237220955804e+003	(2.42363718668052e+001dB,-8.99613012660344e+001°)
9.99999999999993e+003	(2.40363704168444e+001dB,-8.99603998499704e+001°)
1.02329299228075e+004	(2.38363688985489e+001dB,-8.99594774367461e+001°)
1.04712854805089e+004	(2.36363673086980e+001dB,-8.99585335372401e+001°)
1.07151930523760e+004	(2.34363656439196e+001dB,-8.99575676509358e+001°)
1.09647819614318e+004	(2.32363639006822e+001dB,-8.99565792656551e+001°)
1.12201845430196e+004	(2.30363620752882e+001dB,-8.99555678572870e+001°)
1.14815362149688e+004	(2.28363601638658e+001dB,-8.99545328895095e+001°)
1.17489755493952e+004	(2.26363581623603e+001dB,-8.99534738135046e+001°)
1.20226443461740e+004	(2.24363560665264e+001dB,-8.99523900676672e+001°)
1.23026877081237e+004	(2.22363538719184e+001dB,-8.99512810773072e+001°)
1.25892541179416e+004	(2.20363515738812e+001dB,-8.99501462543439e+001°)
1.28824955169313e+004	(2.18363491675403e+001dB,-8.99489849969946e+001°)
1.31825673855640e+004	(2.16363466477915e+001dB,-8.99477966894543e+001°)
1.34896288259164e+004	(2.14363440092898e+001dB,-8.99465807015693e+001°)
1.38038426460288e+004	(2.12363412464386e+001dB,-8.99453363885024e+001°)
1.41253754462274e+004	(2.10363383533775e+001dB,-8.99440630903906e+001°)
1.44543977074592e+004	(2.08363353239697e+001dB,-8.99427601319946e+001°)
1.47910838816820e+004	(2.06363321517893e+001dB,-8.99414268223402e+001°)
1.51356124843620e+004	(2.04363288301076e+001dB,-8.99400624543516e+001°)
1.54881661891247e+004	(2.02363253518787e+001dB,-8.99386663044755e+001°)
1.58489319246110e+004	(2.00363217097246e+001dB,-8.99372376322967e+001°)
1.62181009735892e+004	(1.98363178959196e+001dB,-8.99357756801453e+001°)
1.65958690743755e+004	(1.96363139023740e+001dB,-8.99342796726936e+001°)
1.69824365246173e+004	(1.94363097206167e+001dB,-8.99327488165444e+001°)
1.73780082874936e+004	(1.92363053417773e+001dB,-8.99311822998093e+001°)
1.77827941003891e+004	(1.90363007565676e+001dB,-8.99295792916775e+001°)
1.81970085860997e+004	(1.88362959552613e+001dB,-8.99279389419738e+001°)
1.86208713666285e+004	(1.86362909276740e+001dB,-8.99262603807071e+001°)
1.90546071796323e+004	(1.84362856631411e+001dB,-8.99245427176076e+001°)
1.94984459975803e+004	(1.82362801504954e+001dB,-8.99227850416536e+001°)
1.99526231496887e+004	(1.80362743780435e+001dB,-8.99209864205870e+001°)
2.04173794466951e+004	(1.78362683335408e+001dB,-8.99191459004175e+001°)
2.08929613085402e+004	(1.76362620041655e+001dB,-8.99172625049154e+001°)
2.13796208950222e+004	(1.74362553764916e+001dB,-8.99153352350918e+001°)
2.18776162394954e+004	(1.72362484364604e+001dB,-8.99133630686674e+001°)
2.23872113856832e+004	(1.70362411693505e+001dB,-8.99113449595286e+001°)
2.29086765276776e+004	(1.68362335597466e+001dB,-8.99092798371703e+001°)
2.34422881531990e+004	(1.66362255915069e+001dB,-8.99071666061264e+001°)
2.39883291901947e+004	(1.64362172477288e+001dB,-8.99050041453863e+001°)
2.45470891568501e+004	(1.62362085107131e+001dB,-8.99027913077982e+001°)
2.51188643150956e+004	(1.60361993619264e+001dB,-8.99005269194577e+001°)
2.57039578276884e+004	(1.58361897819617e+001dB,-8.98982097790826e+001°)
2.63026799189536e+004	(1.56361797504974e+001dB,-8.98958386573727e+001°)
2.69153480392689e+004	(1.54361692462539e+001dB,-8.98934122963545e+001°)
2.75422870333814e+004	(1.52361582469490e+001dB,-8.98909294087106e+001°)
2.81838293126443e+004	(1.50361467292497e+001dB,-8.98883886770933e+001°)
2.88403150312658e+004	(1.48361346687239e+001dB,-8.98857887534216e+001°)
2.95120922666636e+004	(1.46361220397874e+001dB,-8.98831282581620e+001°)
3.01995172040199e+004	(1.44361088156504e+001dB,-8.98804057795925e+001°)
3.09029543251357e+004	(1.42360949682603e+001dB,-8.98776198730482e+001°)
3.16227766016835e+004	(1.40360804682424e+001dB,-8.98747690601504e+001°)
3.23593656929626e+004	(1.38360652848371e+001dB,-8.98718518280164e+001°)
3.31131121482588e+004	(1.36360493858353e+001dB,-8.98688666284510e+001°)
3.38844156139200e+004	(1.34360327375096e+001dB,-8.98658118771187e+001°)
3.46736850452529e+004	(1.32360153045429e+001dB,-8.98626859526966e+001°)
3.54813389233573e+004	(1.30359970499532e+001dB,-8.98594871960063e+001°)
3.63078054770098e+004	(1.28359779350155e+001dB,-8.98562139091262e+001°)
3.71535229097169e+004	(1.26359579191796e+001dB,-8.98528643544820e+001°)
3.80189396320558e+004	(1.24359369599834e+001dB,-8.98494367539157e+001°)
3.89045144994277e+004	(1.22359150129638e+001dB,-8.98459292877322e+001°)
3.98107170553494e+004	(1.20358920315614e+001dB,-8.98423400937240e+001°)
4.07380277804109e+004	(1.18358679670225e+001dB,-8.98386672661708e+001°)
4.16869383470332e+004	(1.16358427682948e+001dB,-8.98349088548172e+001°)
4.26579518801589e+004	(1.14358163819197e+001dB,-8.98310628638246e+001°)
4.36515832240162e+004	(1.12357887519186e+001dB,-8.98271272506981e+001°)
4.46683592150959e+004	(1.10357598196739e+001dB,-8.98230999251879e+001°)
4.57088189614871e+004	(1.08357295238050e+001dB,-8.98189787481642e+001°)
4.67735141287194e+004	(1.06356978000377e+001dB,-8.98147615304650e+001°)
4.78630092322634e+004	(1.04356645810675e+001dB,-8.98104460317157e+001°)
4.89778819368442e+004	(1.02356297964174e+001dB,-8.98060299591206e+001°)
5.01187233627268e+004	(1.00355933722879e+001dB,-8.98015109662250e+001°)
5.12861383991360e+004	(9.83555523140005e+000dB,-8.97968866516472e+001°)
5.24807460249768e+004	(9.63551529283190e+000dB,-8.97921545577797e+001°)
